
=================================================
 TEST 1 : SPI BFM
=================================================

[69000] -----------------------------------------
[69000] AXI WRITE START ADDR=30000000 DATA=aaaa0001bbbb0001cccc0001dead0001
[394000] AXI WRITE COMPLETE ADDR=30000000

[396000] AXI READ START ADDR=30000000 EXPECTED=00000001bbbb0001dead0001dead0001
[714000] AXI READ PASS ADDR=30000000 DATA=00000001bbbb0001dead0001dead0001

=================================================
 TEST 2 : I2C BFM
=================================================

[716000] -----------------------------------------
[716000] AXI WRITE START ADDR=30010000 DATA=aaaa0002bbbb0002cccc0002dead0002
[1044000] AXI WRITE COMPLETE ADDR=30010000

[1046000] AXI READ START ADDR=30010000 EXPECTED=aaaa000200000001cccc0002dead0002
[1364000] AXI READ PASS ADDR=30010000 DATA=aaaa000200000001cccc0002dead0002

=================================================
 TEST 3 : UART BFM
=================================================

[1366000] -----------------------------------------
[1366000] AXI WRITE START ADDR=30020000 DATA=aaaa0003bbbb0003cccc0003dead0003
[1694000] AXI WRITE COMPLETE ADDR=30020000

[1696000] AXI READ START ADDR=30020000 EXPECTED=aaaa0003bbbb000300000001dead0003
[2014000] AXI READ PASS ADDR=30020000 DATA=aaaa0003bbbb000300000001dead0003

=================================================
 TEST 4 : ALL APB DECODER WINDOWS
=================================================
[2016000] Testing peripheral 0 BASE=30000000

[2016000] -----------------------------------------
[2016000] AXI WRITE START ADDR=30000000 DATA=123456789abcdef00011223344550000
[2344000] AXI WRITE COMPLETE ADDR=30000000
[2346000] Testing peripheral 1 BASE=30010000

[2346000] -----------------------------------------
[2346000] AXI WRITE START ADDR=30010000 DATA=123456789abcdef00011223344550001
[2674000] AXI WRITE COMPLETE ADDR=30010000
[2676000] Testing peripheral 2 BASE=30020000

[2676000] -----------------------------------------
[2676000] AXI WRITE START ADDR=30020000 DATA=123456789abcdef00011223344550002
[3004000] AXI WRITE COMPLETE ADDR=30020000
[3006000] Testing peripheral 3 BASE=30030000

[3006000] -----------------------------------------
[3006000] AXI WRITE START ADDR=30030000 DATA=123456789abcdef00011223344550003
[3075000] GPIO WRITE ADDR=30030000 DATA=44550003
[3085000] GPIO WRITE ADDR=30030000 DATA=44550003
[3165000] GPIO WRITE ADDR=30030004 DATA=00112233
[3175000] GPIO WRITE ADDR=30030004 DATA=00112233
[3255000] GPIO WRITE ADDR=30030008 DATA=9abcdef0
[3265000] GPIO WRITE ADDR=30030008 DATA=9abcdef0
[3345000] GPIO WRITE ADDR=3003000c DATA=12345678
[3355000] GPIO WRITE ADDR=3003000c DATA=12345678
[3374000] AXI WRITE COMPLETE ADDR=30030000
[3376000] Testing peripheral 4 BASE=30040000

[3376000] -----------------------------------------
[3376000] AXI WRITE START ADDR=30040000 DATA=123456789abcdef00011223344550004
[3445000] MIPI WRITE ADDR=30040000 DATA=44550004
[3455000] MIPI WRITE ADDR=30040000 DATA=44550004
[3535000] MIPI WRITE ADDR=30040004 DATA=00112233
[3545000] MIPI WRITE ADDR=30040004 DATA=00112233
[3625000] MIPI WRITE ADDR=30040008 DATA=9abcdef0
[3635000] MIPI WRITE ADDR=30040008 DATA=9abcdef0
[3715000] MIPI WRITE ADDR=3004000c DATA=12345678
[3725000] MIPI WRITE ADDR=3004000c DATA=12345678
[3744000] AXI WRITE COMPLETE ADDR=30040000
[3746000] Testing peripheral 5 BASE=30050000

[3746000] -----------------------------------------
[3746000] AXI WRITE START ADDR=30050000 DATA=123456789abcdef00011223344550005
[3815000] HDMI WRITE ADDR=30050000 DATA=44550005
[3825000] HDMI WRITE ADDR=30050000 DATA=44550005
[3905000] HDMI WRITE ADDR=30050004 DATA=00112233
[3915000] HDMI WRITE ADDR=30050004 DATA=00112233
[3995000] HDMI WRITE ADDR=30050008 DATA=9abcdef0
[4005000] HDMI WRITE ADDR=30050008 DATA=9abcdef0
[4085000] HDMI WRITE ADDR=3005000c DATA=12345678
[4095000] HDMI WRITE ADDR=3005000c DATA=12345678
[4114000] AXI WRITE COMPLETE ADDR=30050000
[4116000] Testing peripheral 6 BASE=30060000

[4116000] -----------------------------------------
[4116000] AXI WRITE START ADDR=30060000 DATA=123456789abcdef00011223344550006
[4185000] TIMER WRITE ADDR=30060000 DATA=44550006
[4195000] TIMER WRITE ADDR=30060000 DATA=44550006
[4275000] TIMER WRITE ADDR=30060004 DATA=00112233
[4285000] TIMER WRITE ADDR=30060004 DATA=00112233
[4365000] TIMER WRITE ADDR=30060008 DATA=9abcdef0
[4375000] TIMER WRITE ADDR=30060008 DATA=9abcdef0
[4455000] TIMER WRITE ADDR=3006000c DATA=12345678
[4465000] TIMER WRITE ADDR=3006000c DATA=12345678
[4484000] AXI WRITE COMPLETE ADDR=30060000
[4486000] Testing peripheral 7 BASE=30070000

[4486000] -----------------------------------------
[4486000] AXI WRITE START ADDR=30070000 DATA=123456789abcdef00011223344550007
[4555000] DEBUG WRITE ADDR=30070000 DATA=44550007
[4565000] DEBUG WRITE ADDR=30070000 DATA=44550007
[4645000] DEBUG WRITE ADDR=30070004 DATA=00112233
[4655000] DEBUG WRITE ADDR=30070004 DATA=00112233
[4735000] DEBUG WRITE ADDR=30070008 DATA=9abcdef0
[4745000] DEBUG WRITE ADDR=30070008 DATA=9abcdef0
[4825000] DEBUG WRITE ADDR=3007000c DATA=12345678
[4835000] DEBUG WRITE ADDR=3007000c DATA=12345678
[4854000] AXI WRITE COMPLETE ADDR=30070000

[4869000] AXI READ START ADDR=30000000 EXPECTED=000000019abcdef04455000044550000
[5194000] AXI READ PASS ADDR=30000000 DATA=000000019abcdef04455000044550000

[5196000] AXI READ START ADDR=30010000 EXPECTED=12345678000000010011223344550001
[5514000] AXI READ PASS ADDR=30010000 DATA=12345678000000010011223344550001

[5516000] AXI READ START ADDR=30020000 EXPECTED=123456789abcdef00000000144550002
[5834000] AXI READ PASS ADDR=30020000 DATA=123456789abcdef00000000144550002

[5836000] AXI READ START ADDR=30030000 EXPECTED=123456789abcdef00011223344550003
[5895000] GPIO READ ADDR=30030000 DATA=44550003
[5905000] GPIO READ ADDR=30030000 DATA=44550003
[5985000] GPIO READ ADDR=30030004 DATA=00112233
[5995000] GPIO READ ADDR=30030004 DATA=00112233
[6075000] GPIO READ ADDR=30030008 DATA=9abcdef0
[6085000] GPIO READ ADDR=30030008 DATA=9abcdef0
[6165000] GPIO READ ADDR=3003000c DATA=12345678
[6175000] GPIO READ ADDR=3003000c DATA=12345678
[6194000] AXI READ PASS ADDR=30030000 DATA=123456789abcdef00011223344550003

[6196000] AXI READ START ADDR=30040000 EXPECTED=123456789abcdef00011223344550004
[6255000] MIPI READ ADDR=30040000 DATA=44550004
[6265000] MIPI READ ADDR=30040000 DATA=44550004
[6345000] MIPI READ ADDR=30040004 DATA=00112233
[6355000] MIPI READ ADDR=30040004 DATA=00112233
[6435000] MIPI READ ADDR=30040008 DATA=9abcdef0
[6445000] MIPI READ ADDR=30040008 DATA=9abcdef0
[6525000] MIPI READ ADDR=3004000c DATA=12345678
[6535000] MIPI READ ADDR=3004000c DATA=12345678
[6554000] AXI READ PASS ADDR=30040000 DATA=123456789abcdef00011223344550004

[6556000] AXI READ START ADDR=30050000 EXPECTED=123456789abcdef00011223344550005
[6615000] HDMI READ ADDR=30050000 DATA=44550005
[6625000] HDMI READ ADDR=30050000 DATA=44550005
[6705000] HDMI READ ADDR=30050004 DATA=00112233
[6715000] HDMI READ ADDR=30050004 DATA=00112233
[6795000] HDMI READ ADDR=30050008 DATA=9abcdef0
[6805000] HDMI READ ADDR=30050008 DATA=9abcdef0
[6885000] HDMI READ ADDR=3005000c DATA=12345678
[6895000] HDMI READ ADDR=3005000c DATA=12345678
[6914000] AXI READ PASS ADDR=30050000 DATA=123456789abcdef00011223344550005

[6916000] AXI READ START ADDR=30060000 EXPECTED=123456789abcdef00011223344550006
[6975000] TIMER READ ADDR=30060000 DATA=44550006
[6985000] TIMER READ ADDR=30060000 DATA=44550006
[7065000] TIMER READ ADDR=30060004 DATA=00112233
[7075000] TIMER READ ADDR=30060004 DATA=00112233
[7155000] TIMER READ ADDR=30060008 DATA=9abcdef0
[7165000] TIMER READ ADDR=30060008 DATA=9abcdef0
[7245000] TIMER READ ADDR=3006000c DATA=12345678
[7255000] TIMER READ ADDR=3006000c DATA=12345678
[7274000] AXI READ PASS ADDR=30060000 DATA=123456789abcdef00011223344550006

[7276000] AXI READ START ADDR=30070000 EXPECTED=123456789abcdef00011223344550007
[7335000] DEBUG READ ADDR=30070000 DATA=44550007
[7345000] DEBUG READ ADDR=30070000 DATA=44550007
[7425000] DEBUG READ ADDR=30070004 DATA=00112233
[7435000] DEBUG READ ADDR=30070004 DATA=00112233
[7515000] DEBUG READ ADDR=30070008 DATA=9abcdef0
[7525000] DEBUG READ ADDR=30070008 DATA=9abcdef0
[7605000] DEBUG READ ADDR=3007000c DATA=12345678
[7615000] DEBUG READ ADDR=3007000c DATA=12345678
[7634000] AXI READ PASS ADDR=30070000 DATA=123456789abcdef00011223344550007

=================================================
 TEST 5 : UART MULTIPLE REGISTERS
=================================================

[7636000] -----------------------------------------
[7636000] AXI WRITE START ADDR=30020000 DATA=11111111222222223333333344444444
[7964000] AXI WRITE COMPLETE ADDR=30020000

[7966000] -----------------------------------------
[7966000] AXI WRITE START ADDR=30020010 DATA=aaaaaaaabbbbbbbbccccccccdddddddd
[8294000] AXI WRITE COMPLETE ADDR=30020010

[8296000] -----------------------------------------
[8296000] AXI WRITE START ADDR=30020020 DATA=0123456789abcdeffedcba9876543210
[8624000] AXI WRITE COMPLETE ADDR=30020020

[8626000] AXI READ START ADDR=30020000 EXPECTED=11111111222222220000000144444444
[8944000] AXI READ PASS ADDR=30020000 DATA=11111111222222220000000144444444

[8946000] AXI READ START ADDR=30020010 EXPECTED=00000000000000000000000000000000
[9264000] AXI READ PASS ADDR=30020010 DATA=00000000000000000000000000000000

[9266000] AXI READ START ADDR=30020020 EXPECTED=00000000000000000000000000000000
[9584000] AXI READ PASS ADDR=30020020 DATA=00000000000000000000000000000000

=================================================
             FINAL TEST RESULT
=================================================
Data errors   = 0
Decode errors = 0

***********************************************
*              TEST PASSED                   *
* AXI -> APB -> Peripheral BFM working       *
* Decoder one-hot check PASSED               *
***********************************************

- ../simulation/tb_axi4_to_apb_bridge_cdc.sv:1359: Verilog $finish
- S i m u l a t i o n   R e p o r t: Verilator 5.052 2026-09-05
- Verilator: $finish at 10us; walltime 0.012 s; speed 793.917 us/s
- Verilator: cpu 0.012 s on 1 threads; allocated 4 MB
